
TF5E0 000:003 SEGGER J-Link V6.16c Log File (0000ms, 0003ms total)
TF5E0 000:003 DLL Compiled: Jun 16 2017 18:14:49 (0000ms, 0003ms total)
TF5E0 000:003 Logging started @ 2020-07-03 16:55 (0000ms, 0003ms total)
TF5E0 000:003 JLINK_SetWarnOutHandler(...) (0000ms, 0003ms total)
TF5E0 000:003 JLINK_OpenEx(...)
Firmware: J-Link V9 compiled May 17 2019 09:50:41
Hardware: V9.40
S/N: 59407374
Feature(s): RDI, GDB, FlashDL, FlashBP, JFlashWEBSRV Webserver running on local port 19080 (0025ms, 0028ms total)
TF5E0 000:003   returns O.K. (0025ms, 0028ms total)
TF5E0 000:028 JLINK_GetEmuCaps()  returns 0xB9FF7BBF (0000ms, 0028ms total)
TF5E0 000:028 JLINK_TIF_GetAvailable(...) (0000ms, 0028ms total)
TF5E0 000:028 JLINK_SetErrorOutHandler(...) (0000ms, 0028ms total)
TF5E0 000:028 JLINK_ExecCommand("ProjectFile = "E:\work\proj\p03_terminal_ctrl_water\sw\p03_terminal_ctrl_water\MDK\JLinkSettings.ini"", ...). Device "CORTEX-M0+" selected.  returns 0x00 (0092ms, 0120ms total)
TF5E0 000:125 JLINK_ExecCommand("Device = ARMCM0P", ...). Device "CORTEX-M0" selected.  returns 0x00 (0010ms, 0130ms total)
TF5E0 000:135 JLINK_ExecCommand("DisableConnectionTimeout", ...).   returns 0x01 (0001ms, 0131ms total)
TF5E0 000:136 JLINK_GetHardwareVersion()  returns 0x16F30 (0000ms, 0131ms total)
TF5E0 000:136 JLINK_GetDLLVersion()  returns 61603 (0000ms, 0131ms total)
TF5E0 000:136 JLINK_GetFirmwareString(...) (0000ms, 0131ms total)
TF5E0 000:179 JLINK_GetDLLVersion()  returns 61603 (0000ms, 0131ms total)
TF5E0 000:179 JLINK_GetCompileDateTime() (0000ms, 0131ms total)
TF5E0 000:186 JLINK_GetFirmwareString(...) (0000ms, 0131ms total)
TF5E0 000:191 JLINK_GetHardwareVersion()  returns 0x16F30 (0000ms, 0131ms total)
TF5E0 000:213 JLINK_TIF_Select(JLINKARM_TIF_SWD)  returns 0x00 (0001ms, 0132ms total)
TF5E0 000:214 JLINK_SetSpeed(1000) (0000ms, 0132ms total)
TF5E0 000:214 JLINK_GetId() >0x10B TIF>Found SW-DP with ID 0x0BC11477 >0x0D TIF> >0x28 TIF> >0x0D TIF> >0x28 TIF> >0x0D TIF> >0x28 TIF> >0x0D TIF> >0x28 TIF> >0x0D TIF> >0x21 TIF> >0x0D TIF> >0x28 TIF>Scanning APs, stopping at first AHB-AP found. >0x0D TIF> >0x28 TIF> >0x0D TIF> >0x21 TIF> >0x0D TIF> >0x21 TIF>AP[0] IDR: 0x04770031 (AHB-AP) >0x0D TIF> >0x28 TIF> >0x0D TIF> >0x21 TIF> >0x0D TIF> >0x21 TIF>AHB-AP ROM: 0xE00FF000 (Base addr. of first ROM table) >0x0D TIF> >0x28 TIF> >0x0D TIF> >0x28 TIF>
 >0x0D TIF> >0x28 TIF> >0x0D TIF> >0x21 TIF> >0x0D TIF> >0x21 TIF> >0x0D TIF> >0x28 TIF> >0x0D TIF> >0x21 TIF> >0x0D TIF> >0x21 TIF>CPUID reg: 0x410CC601. Implementer code: 0x41 (ARM)Found Cortex-M0 r0p1, Little endian. -- CPU_ReadMem(4 bytes @ 0xE000EDF0) -- CPU_WriteMem(4 bytes @ 0xE000EDF0) -- CPU_ReadMem(4 bytes @ 0xE0002000)FPUnit: 4 code (BP) slots and 0 literal slots -- CPU_ReadMem(4 bytes @ 0xE000EDFC) -- CPU_WriteMem(4 bytes @ 0xE000EDFC) -- CPU_ReadMem(4 bytes @ 0xE0001000)
 -- CPU_WriteMem(4 bytes @ 0xE0001000)CoreSight components:ROMTbl[0] @ E00FF000 -- CPU_ReadMem(16 bytes @ 0xE00FF000) -- CPU_ReadMem(16 bytes @ 0xE000EFF0) -- CPU_ReadMem(16 bytes @ 0xE000EFE0)ROMTbl[0][0]: E000E000, CID: B105E00D, PID: 000BB008 SCS -- CPU_ReadMem(16 bytes @ 0xE0001FF0) -- CPU_ReadMem(16 bytes @ 0xE0001FE0)ROMTbl[0][1]: E0001000, CID: B105E00D, PID: 000BB00A DWT -- CPU_ReadMem(16 bytes @ 0xE0002FF0) -- CPU_ReadMem(16 bytes @ 0xE0002FE0)
ROMTbl[0][2]: E0002000, CID: B105E00D, PID: 000BB00B FPB >0x0D TIF> >0x21 TIF>  returns 0x0BC11477 (0083ms, 0215ms total)
TF5E0 000:297 JLINK_GetDLLVersion()  returns 61603 (0000ms, 0215ms total)
TF5E0 000:297 JLINK_CORE_GetFound()  returns 0x60000FF (0000ms, 0215ms total)
TF5E0 000:297 JLINK_GetDebugInfo(0x100 = JLINKARM_ROM_TABLE_ADDR_INDEX) -- Value=0xE00FF000  returns 0x00 (0000ms, 0215ms total)
TF5E0 000:302 JLINK_GetDebugInfo(0x100 = JLINKARM_ROM_TABLE_ADDR_INDEX) -- Value=0xE00FF000  returns 0x00 (0000ms, 0215ms total)
TF5E0 000:302 JLINK_GetDebugInfo(0x101 = JLINKARM_DEBUG_INFO_ETM_ADDR_INDEX) -- Value=0x00000000  returns 0x00 (0000ms, 0215ms total)
TF5E0 000:302 JLINK_ReadMemEx(0xE0041FF0, 0x0010 Bytes, ..., Flags = 0x02000004) -- CPU_ReadMem(16 bytes @ 0xE0041FF0) - Data: 00 00 00 00 00 00 00 00 00 00 00 00 00 00 00 00  returns 0x10 (0001ms, 0216ms total)
TF5E0 000:303 JLINK_GetDebugInfo(0x102 = JLINKARM_DEBUG_INFO_MTB_ADDR_INDEX) -- Value=0x00000000  returns 0x00 (0000ms, 0216ms total)
TF5E0 000:303 JLINK_GetDebugInfo(0x103 = JLINKARM_DEBUG_INFO_TPIU_ADDR_INDEX) -- Value=0x00000000  returns 0x00 (0000ms, 0216ms total)
TF5E0 000:303 JLINK_ReadMemEx(0xE0040FF0, 0x0010 Bytes, ..., Flags = 0x02000004) -- CPU_ReadMem(16 bytes @ 0xE0040FF0) - Data: 00 00 00 00 00 00 00 00 00 00 00 00 00 00 00 00  returns 0x10 (0001ms, 0217ms total)
TF5E0 000:304 JLINK_GetDebugInfo(0x104 = JLINKARM_DEBUG_INFO_ITM_ADDR_INDEX) -- Value=0xE0000000  returns 0x00 (0000ms, 0217ms total)
TF5E0 000:304 JLINK_GetDebugInfo(0x105 = JLINKARM_DEBUG_INFO_DWT_ADDR_INDEX) -- Value=0xE0001000  returns 0x00 (0000ms, 0217ms total)
TF5E0 000:304 JLINK_GetDebugInfo(0x106 = JLINKARM_DEBUG_INFO_FPB_ADDR_INDEX) -- Value=0xE0002000  returns 0x00 (0000ms, 0217ms total)
TF5E0 000:304 JLINK_GetDebugInfo(0x107 = JLINKARM_DEBUG_INFO_NVIC_ADDR_INDEX) -- Value=0xE000E000  returns 0x00 (0000ms, 0217ms total)
TF5E0 000:304 JLINK_GetDebugInfo(0x10C = JLINKARM_DEBUG_INFO_DBG_ADDR_INDEX) -- Value=0xE000EDF0  returns 0x00 (0000ms, 0217ms total)
TF5E0 000:304 JLINK_ReadMemU32(0xE000ED00, 0x0001 Items, ...) -- CPU_ReadMem(4 bytes @ 0xE000ED00) - Data: 01 C6 0C 41  returns 0x01 (0001ms, 0218ms total)
TF5E0 000:305 JLINK_GetDebugInfo(0x10F = JLINKARM_DEBUG_INFO_HAS_CORTEX_M_SECURITY_EXT_INDEX) -- Value=0x00000000  returns 0x00 (0000ms, 0218ms total)
TF5E0 000:305 JLINK_SetResetType(JLINKARM_CM3_RESET_TYPE_NORMAL)  returns JLINKARM_CM3_RESET_TYPE_NORMAL (0000ms, 0218ms total)
TF5E0 000:305 JLINK_Reset() -- CPU is running -- CPU_WriteMem(4 bytes @ 0xE000EDF0) -- CPU is running -- CPU_WriteMem(4 bytes @ 0xE000EDFC) >0x35 TIF>Setting AIRCR.SYSRESETREQ -- CPU is running -- CPU_WriteMem(4 bytes @ 0xE000ED0C) >0x0D TIF> >0x28 TIF> -- CPU_ReadMem(4 bytes @ 0xE000ED0C) -- CPU_ReadMem(4 bytes @ 0xE000EDF0) -- CPU_ReadMem(4 bytes @ 0xE000EDF0) -- CPU_ReadMem(4 bytes @ 0xE000EDF0) -- CPU is running -- CPU_WriteMem(4 bytes @ 0xE000EDF0) -- CPU is running
 -- CPU_WriteMem(4 bytes @ 0xE000EDFC) -- CPU_ReadMem(4 bytes @ 0xE000EDF0) -- CPU_WriteMem(4 bytes @ 0xE0002000) -- CPU_ReadMem(4 bytes @ 0xE000EDFC) -- CPU_ReadMem(4 bytes @ 0xE0001000) -- CPU_WriteMem(4 bytes @ 0xE0001000) (0079ms, 0297ms total)
TF5E0 000:384 JLINK_Halt()  returns 0x00 (0000ms, 0297ms total)
TF5E0 000:384 JLINK_ReadMemU32(0xE000EDF0, 0x0001 Items, ...) -- CPU_ReadMem(4 bytes @ 0xE000EDF0) - Data: 03 00 03 00  returns 0x01 (0000ms, 0297ms total)
TF5E0 000:384 JLINK_WriteU32(0xE000EDF0, 0xA05F0003) -- CPU_WriteMem(4 bytes @ 0xE000EDF0)  returns 0x00 (0001ms, 0298ms total)
TF5E0 000:385 JLINK_WriteU32(0xE000EDFC, 0x01000000) -- CPU_WriteMem(4 bytes @ 0xE000EDFC)  returns 0x00 (0001ms, 0299ms total)
TF5E0 000:407 JLINK_GetHWStatus(...)  returns 0x00 (0000ms, 0299ms total)
TF5E0 000:423 JLINK_GetNumBPUnits(Type = 0xFFFFFF00)  returns 0x04 (0000ms, 0299ms total)
TF5E0 000:423 JLINK_GetNumBPUnits(Type = 0xF0)  returns 0x2000 (0000ms, 0299ms total)
TF5E0 000:423 JLINK_GetNumWPUnits()  returns 0x02 (0000ms, 0299ms total)
TF5E0 000:439 JLINK_GetSpeed()  returns 0x3E8 (0000ms, 0299ms total)
TF5E0 000:449 JLINK_ReadMemU32(0xE000E004, 0x0001 Items, ...) -- CPU_ReadMem(4 bytes @ 0xE000E004) - Data: 00 00 00 00  returns 0x01 (0002ms, 0301ms total)
TF5E0 000:451 JLINK_Halt()  returns 0x00 (0000ms, 0301ms total)
TF5E0 000:451 JLINK_IsHalted()  returns TRUE (0000ms, 0301ms total)
TF5E0 000:454 JLINK_WriteMem(0x20000000, 0x0250 Bytes, ...) - Data: 00 BE 0A E0 0D 78 2D 06 68 40 08 24 40 00 00 D3 ... -- CPU_WriteMem(592 bytes @ 0x20000000)  returns 0x250 (0009ms, 0310ms total)
TF5E0 000:463 JLINK_WriteReg(R0, 0x00000000)  returns 0x00 (0000ms, 0310ms total)
TF5E0 000:463 JLINK_WriteReg(R1, 0x00B71B00)  returns 0x00 (0000ms, 0310ms total)
TF5E0 000:463 JLINK_WriteReg(R2, 0x00000001)  returns 0x00 (0000ms, 0310ms total)
TF5E0 000:463 JLINK_WriteReg(R3, 0x00000000)  returns 0x00 (0000ms, 0310ms total)
TF5E0 000:463 JLINK_WriteReg(R4, 0x00000000)  returns 0x00 (0000ms, 0310ms total)
TF5E0 000:463 JLINK_WriteReg(R5, 0x00000000)  returns 0x00 (0000ms, 0310ms total)
TF5E0 000:463 JLINK_WriteReg(R6, 0x00000000)  returns 0x00 (0000ms, 0310ms total)
TF5E0 000:463 JLINK_WriteReg(R7, 0x00000000)  returns 0x00 (0000ms, 0310ms total)
TF5E0 000:463 JLINK_WriteReg(R8, 0x00000000)  returns 0x00 (0000ms, 0310ms total)
TF5E0 000:463 JLINK_WriteReg(R9, 0x2000024C)  returns 0x00 (0000ms, 0310ms total)
TF5E0 000:463 JLINK_WriteReg(R10, 0x00000000)  returns 0x00 (0000ms, 0310ms total)
TF5E0 000:463 JLINK_WriteReg(R11, 0x00000000)  returns 0x00 (0000ms, 0310ms total)
TF5E0 000:463 JLINK_WriteReg(R12, 0x00000000)  returns 0x00 (0000ms, 0310ms total)
TF5E0 000:463 JLINK_WriteReg(R13 (SP), 0x20004000)  returns 0x00 (0000ms, 0310ms total)
TF5E0 000:463 JLINK_WriteReg(R14, 0x20000001)  returns 0x00 (0000ms, 0310ms total)
TF5E0 000:463 JLINK_WriteReg(R15 (PC), 0x200000A8)  returns 0x00 (0000ms, 0310ms total)
TF5E0 000:463 JLINK_WriteReg(XPSR, 0x01000000)  returns 0x00 (0000ms, 0310ms total)
TF5E0 000:463 JLINK_WriteReg(MSP, 0x20004000)  returns 0x00 (0000ms, 0310ms total)
TF5E0 000:463 JLINK_WriteReg(PSP, 0x20004000)  returns 0x00 (0000ms, 0310ms total)
TF5E0 000:463 JLINK_WriteReg(CFBP, 0x00000000)  returns 0x00 (0000ms, 0310ms total)
TF5E0 000:463 JLINK_SetBPEx(Addr = 0x20000000, Type = 0xFFFFFFF2) -- CPU_ReadMem(4 bytes @ 0x20000000) -- CPU_WriteMem(4 bytes @ 0x20000000) -- CPU_ReadMem(4 bytes @ 0x20000000) -- CPU_WriteMem(4 bytes @ 0x20000000) -- CPU_ReadMem(2 bytes @ 0x20000000)  returns 0x00000001 (0003ms, 0313ms total)
TF5E0 000:466 JLINK_Go() -- CPU_WriteMem(2 bytes @ 0x20000000) -- CPU_ReadMem(4 bytes @ 0xE0001000) -- CPU_WriteMem(4 bytes @ 0xE0001000) -- CPU_WriteMem(4 bytes @ 0xE0002008) -- CPU_WriteMem(4 bytes @ 0xE000200C) -- CPU_WriteMem(4 bytes @ 0xE0002010) -- CPU_WriteMem(4 bytes @ 0xE0002014) -- CPU_WriteMem(4 bytes @ 0xE0001004) (0007ms, 0320ms total)
TF5E0 000:473 JLINK_IsHalted() -- CPU_ReadMem(2 bytes @ 0x20000000)  returns TRUE (0007ms, 0327ms total)
TF5E0 000:480 JLINK_ReadReg(R15 (PC))  returns 0x20000000 (0000ms, 0320ms total)
TF5E0 000:480 JLINK_ClrBPEx(BPHandle = 0x00000001)  returns 0x00 (0000ms, 0320ms total)
TF5E0 000:480 JLINK_ReadReg(R0)  returns 0x00000000 (0000ms, 0320ms total)
TF5E0 000:481 JLINK_WriteReg(R0, 0x00000000)  returns 0x00 (0000ms, 0320ms total)
TF5E0 000:481 JLINK_WriteReg(R1, 0x00000200)  returns 0x00 (0000ms, 0320ms total)
TF5E0 000:481 JLINK_WriteReg(R2, 0x000000FF)  returns 0x00 (0000ms, 0320ms total)
TF5E0 000:481 JLINK_WriteReg(R3, 0x00000000)  returns 0x00 (0000ms, 0320ms total)
TF5E0 000:481 JLINK_WriteReg(R4, 0x00000000)  returns 0x00 (0000ms, 0320ms total)
TF5E0 000:481 JLINK_WriteReg(R5, 0x00000000)  returns 0x00 (0000ms, 0320ms total)
TF5E0 000:481 JLINK_WriteReg(R6, 0x00000000)  returns 0x00 (0000ms, 0320ms total)
TF5E0 000:481 JLINK_WriteReg(R7, 0x00000000)  returns 0x00 (0000ms, 0320ms total)
TF5E0 000:481 JLINK_WriteReg(R8, 0x00000000)  returns 0x00 (0000ms, 0320ms total)
TF5E0 000:481 JLINK_WriteReg(R9, 0x2000024C)  returns 0x00 (0000ms, 0320ms total)
TF5E0 000:481 JLINK_WriteReg(R10, 0x00000000)  returns 0x00 (0000ms, 0320ms total)
TF5E0 000:481 JLINK_WriteReg(R11, 0x00000000)  returns 0x00 (0000ms, 0320ms total)
TF5E0 000:481 JLINK_WriteReg(R12, 0x00000000)  returns 0x00 (0000ms, 0320ms total)
TF5E0 000:481 JLINK_WriteReg(R13 (SP), 0x20004000)  returns 0x00 (0000ms, 0320ms total)
TF5E0 000:481 JLINK_WriteReg(R14, 0x20000001)  returns 0x00 (0000ms, 0320ms total)
TF5E0 000:481 JLINK_WriteReg(R15 (PC), 0x20000020)  returns 0x00 (0000ms, 0320ms total)
TF5E0 000:481 JLINK_WriteReg(XPSR, 0x01000000)  returns 0x00 (0000ms, 0320ms total)
TF5E0 000:481 JLINK_WriteReg(MSP, 0x20004000)  returns 0x00 (0000ms, 0320ms total)
TF5E0 000:481 JLINK_WriteReg(PSP, 0x20004000)  returns 0x00 (0000ms, 0320ms total)
TF5E0 000:481 JLINK_WriteReg(CFBP, 0x00000000)  returns 0x00 (0000ms, 0320ms total)
TF5E0 000:481 JLINK_SetBPEx(Addr = 0x20000000, Type = 0xFFFFFFF2)  returns 0x00000002 (0000ms, 0320ms total)
TF5E0 000:481 JLINK_Go() -- CPU_ReadMem(4 bytes @ 0xE0001000) -- CPU_WriteMem(4 bytes @ 0xE0001000) (0004ms, 0324ms total)
TF5E0 000:485 JLINK_IsHalted() -- CPU_ReadMem(2 bytes @ 0x20000000)  returns TRUE (0007ms, 0331ms total)
TF5E0 000:492 JLINK_ReadReg(R15 (PC))  returns 0x20000000 (0000ms, 0324ms total)
TF5E0 000:492 JLINK_ClrBPEx(BPHandle = 0x00000002)  returns 0x00 (0000ms, 0324ms total)
TF5E0 000:492 JLINK_ReadReg(R0)  returns 0x00000001 (0000ms, 0324ms total)
TF5E0 000:492 JLINK_WriteReg(R0, 0x00000000)  returns 0x00 (0000ms, 0324ms total)
TF5E0 000:492 JLINK_WriteReg(R1, 0x00000200)  returns 0x00 (0000ms, 0324ms total)
TF5E0 000:492 JLINK_WriteReg(R2, 0x000000FF)  returns 0x00 (0000ms, 0324ms total)
TF5E0 000:492 JLINK_WriteReg(R3, 0x00000000)  returns 0x00 (0000ms, 0324ms total)
TF5E0 000:492 JLINK_WriteReg(R4, 0x00000000)  returns 0x00 (0000ms, 0324ms total)
TF5E0 000:492 JLINK_WriteReg(R5, 0x00000000)  returns 0x00 (0000ms, 0324ms total)
TF5E0 000:492 JLINK_WriteReg(R6, 0x00000000)  returns 0x00 (0000ms, 0324ms total)
TF5E0 000:492 JLINK_WriteReg(R7, 0x00000000)  returns 0x00 (0000ms, 0324ms total)
TF5E0 000:492 JLINK_WriteReg(R8, 0x00000000)  returns 0x00 (0000ms, 0324ms total)
TF5E0 000:492 JLINK_WriteReg(R9, 0x2000024C)  returns 0x00 (0000ms, 0324ms total)
TF5E0 000:492 JLINK_WriteReg(R10, 0x00000000)  returns 0x00 (0000ms, 0324ms total)
TF5E0 000:492 JLINK_WriteReg(R11, 0x00000000)  returns 0x00 (0000ms, 0324ms total)
TF5E0 000:492 JLINK_WriteReg(R12, 0x00000000)  returns 0x00 (0000ms, 0324ms total)
TF5E0 000:492 JLINK_WriteReg(R13 (SP), 0x20004000)  returns 0x00 (0000ms, 0324ms total)
TF5E0 000:492 JLINK_WriteReg(R14, 0x20000001)  returns 0x00 (0000ms, 0324ms total)
TF5E0 000:492 JLINK_WriteReg(R15 (PC), 0x20000074)  returns 0x00 (0000ms, 0324ms total)
TF5E0 000:492 JLINK_WriteReg(XPSR, 0x01000000)  returns 0x00 (0000ms, 0324ms total)
TF5E0 000:492 JLINK_WriteReg(MSP, 0x20004000)  returns 0x00 (0000ms, 0324ms total)
TF5E0 000:492 JLINK_WriteReg(PSP, 0x20004000)  returns 0x00 (0000ms, 0324ms total)
TF5E0 000:492 JLINK_WriteReg(CFBP, 0x00000000)  returns 0x00 (0000ms, 0324ms total)
TF5E0 000:492 JLINK_SetBPEx(Addr = 0x20000000, Type = 0xFFFFFFF2)  returns 0x00000003 (0000ms, 0324ms total)
TF5E0 000:492 JLINK_Go() -- CPU_ReadMem(4 bytes @ 0xE0001000) -- CPU_WriteMem(4 bytes @ 0xE0001000) (0004ms, 0328ms total)
TF5E0 000:496 JLINK_IsHalted()  returns FALSE (0000ms, 0328ms total)
TF5E0 000:573 JLINK_IsHalted() -- CPU_ReadMem(2 bytes @ 0x20000000)  returns TRUE (0006ms, 0334ms total)
TF5E0 000:579 JLINK_ReadReg(R15 (PC))  returns 0x20000000 (0000ms, 0328ms total)
TF5E0 000:579 JLINK_ClrBPEx(BPHandle = 0x00000003)  returns 0x00 (0000ms, 0328ms total)
TF5E0 000:579 JLINK_ReadReg(R0)  returns 0x00000000 (0000ms, 0328ms total)
TF5E0 000:580 JLINK_WriteReg(R0, 0x00000200)  returns 0x00 (0000ms, 0328ms total)
TF5E0 000:580 JLINK_WriteReg(R1, 0x00000200)  returns 0x00 (0000ms, 0328ms total)
TF5E0 000:580 JLINK_WriteReg(R2, 0x000000FF)  returns 0x00 (0000ms, 0328ms total)
TF5E0 000:580 JLINK_WriteReg(R3, 0x00000000)  returns 0x00 (0000ms, 0328ms total)
TF5E0 000:580 JLINK_WriteReg(R4, 0x00000000)  returns 0x00 (0000ms, 0328ms total)
TF5E0 000:580 JLINK_WriteReg(R5, 0x00000000)  returns 0x00 (0000ms, 0328ms total)
TF5E0 000:580 JLINK_WriteReg(R6, 0x00000000)  returns 0x00 (0000ms, 0328ms total)
TF5E0 000:580 JLINK_WriteReg(R7, 0x00000000)  returns 0x00 (0000ms, 0328ms total)
TF5E0 000:580 JLINK_WriteReg(R8, 0x00000000)  returns 0x00 (0000ms, 0328ms total)
TF5E0 000:580 JLINK_WriteReg(R9, 0x2000024C)  returns 0x00 (0000ms, 0328ms total)
TF5E0 000:580 JLINK_WriteReg(R10, 0x00000000)  returns 0x00 (0000ms, 0328ms total)
TF5E0 000:580 JLINK_WriteReg(R11, 0x00000000)  returns 0x00 (0000ms, 0328ms total)
TF5E0 000:580 JLINK_WriteReg(R12, 0x00000000)  returns 0x00 (0000ms, 0328ms total)
TF5E0 000:580 JLINK_WriteReg(R13 (SP), 0x20004000)  returns 0x00 (0000ms, 0328ms total)
TF5E0 000:580 JLINK_WriteReg(R14, 0x20000001)  returns 0x00 (0000ms, 0328ms total)
TF5E0 000:580 JLINK_WriteReg(R15 (PC), 0x20000020)  returns 0x00 (0000ms, 0328ms total)
TF5E0 000:580 JLINK_WriteReg(XPSR, 0x01000000)  returns 0x00 (0000ms, 0328ms total)
TF5E0 000:580 JLINK_WriteReg(MSP, 0x20004000)  returns 0x00 (0000ms, 0328ms total)
TF5E0 000:580 JLINK_WriteReg(PSP, 0x20004000)  returns 0x00 (0000ms, 0328ms total)
TF5E0 000:580 JLINK_WriteReg(CFBP, 0x00000000)  returns 0x00 (0000ms, 0328ms total)
TF5E0 000:580 JLINK_SetBPEx(Addr = 0x20000000, Type = 0xFFFFFFF2)  returns 0x00000004 (0000ms, 0328ms total)
TF5E0 000:580 JLINK_Go() -- CPU_ReadMem(4 bytes @ 0xE0001000) -- CPU_WriteMem(4 bytes @ 0xE0001000) (0005ms, 0333ms total)
TF5E0 000:585 JLINK_IsHalted() -- CPU_ReadMem(2 bytes @ 0x20000000)  returns TRUE (0006ms, 0339ms total)
TF5E0 000:591 JLINK_ReadReg(R15 (PC))  returns 0x20000000 (0000ms, 0333ms total)
TF5E0 000:591 JLINK_ClrBPEx(BPHandle = 0x00000004)  returns 0x00 (0000ms, 0333ms total)
TF5E0 000:591 JLINK_ReadReg(R0)  returns 0x00000001 (0000ms, 0333ms total)
TF5E0 000:591 JLINK_WriteReg(R0, 0x00000200)  returns 0x00 (0000ms, 0333ms total)
TF5E0 000:591 JLINK_WriteReg(R1, 0x00000200)  returns 0x00 (0000ms, 0333ms total)
TF5E0 000:591 JLINK_WriteReg(R2, 0x000000FF)  returns 0x00 (0000ms, 0333ms total)
TF5E0 000:591 JLINK_WriteReg(R3, 0x00000000)  returns 0x00 (0000ms, 0333ms total)
TF5E0 000:591 JLINK_WriteReg(R4, 0x00000000)  returns 0x00 (0000ms, 0333ms total)
TF5E0 000:591 JLINK_WriteReg(R5, 0x00000000)  returns 0x00 (0000ms, 0333ms total)
TF5E0 000:591 JLINK_WriteReg(R6, 0x00000000)  returns 0x00 (0000ms, 0333ms total)
TF5E0 000:591 JLINK_WriteReg(R7, 0x00000000)  returns 0x00 (0000ms, 0333ms total)
TF5E0 000:591 JLINK_WriteReg(R8, 0x00000000)  returns 0x00 (0000ms, 0333ms total)
TF5E0 000:591 JLINK_WriteReg(R9, 0x2000024C)  returns 0x00 (0000ms, 0333ms total)
TF5E0 000:591 JLINK_WriteReg(R10, 0x00000000)  returns 0x00 (0000ms, 0333ms total)
TF5E0 000:591 JLINK_WriteReg(R11, 0x00000000)  returns 0x00 (0000ms, 0333ms total)
TF5E0 000:591 JLINK_WriteReg(R12, 0x00000000)  returns 0x00 (0000ms, 0333ms total)
TF5E0 000:591 JLINK_WriteReg(R13 (SP), 0x20004000)  returns 0x00 (0000ms, 0333ms total)
TF5E0 000:591 JLINK_WriteReg(R14, 0x20000001)  returns 0x00 (0000ms, 0333ms total)
TF5E0 000:591 JLINK_WriteReg(R15 (PC), 0x20000074)  returns 0x00 (0000ms, 0333ms total)
TF5E0 000:591 JLINK_WriteReg(XPSR, 0x01000000)  returns 0x00 (0000ms, 0333ms total)
TF5E0 000:591 JLINK_WriteReg(MSP, 0x20004000)  returns 0x00 (0000ms, 0333ms total)
TF5E0 000:591 JLINK_WriteReg(PSP, 0x20004000)  returns 0x00 (0000ms, 0333ms total)
TF5E0 000:591 JLINK_WriteReg(CFBP, 0x00000000)  returns 0x00 (0000ms, 0333ms total)
TF5E0 000:591 JLINK_SetBPEx(Addr = 0x20000000, Type = 0xFFFFFFF2)  returns 0x00000005 (0000ms, 0333ms total)
TF5E0 000:591 JLINK_Go() -- CPU_ReadMem(4 bytes @ 0xE0001000) -- CPU_WriteMem(4 bytes @ 0xE0001000) (0005ms, 0338ms total)
TF5E0 000:596 JLINK_IsHalted()  returns FALSE (0000ms, 0338ms total)
TF5E0 000:600 JLINK_IsHalted() -- CPU_ReadMem(2 bytes @ 0x20000000)  returns TRUE (0007ms, 0345ms total)
TF5E0 000:607 JLINK_ReadReg(R15 (PC))  returns 0x20000000 (0000ms, 0338ms total)
TF5E0 000:607 JLINK_ClrBPEx(BPHandle = 0x00000005)  returns 0x00 (0000ms, 0338ms total)
TF5E0 000:607 JLINK_ReadReg(R0)  returns 0x00000000 (0000ms, 0338ms total)
TF5E0 000:608 JLINK_WriteReg(R0, 0x00000400)  returns 0x00 (0000ms, 0338ms total)
TF5E0 000:608 JLINK_WriteReg(R1, 0x00000200)  returns 0x00 (0000ms, 0338ms total)
TF5E0 000:608 JLINK_WriteReg(R2, 0x000000FF)  returns 0x00 (0000ms, 0338ms total)
TF5E0 000:608 JLINK_WriteReg(R3, 0x00000000)  returns 0x00 (0000ms, 0338ms total)
TF5E0 000:608 JLINK_WriteReg(R4, 0x00000000)  returns 0x00 (0000ms, 0338ms total)
TF5E0 000:608 JLINK_WriteReg(R5, 0x00000000)  returns 0x00 (0000ms, 0338ms total)
TF5E0 000:608 JLINK_WriteReg(R6, 0x00000000)  returns 0x00 (0000ms, 0338ms total)
TF5E0 000:608 JLINK_WriteReg(R7, 0x00000000)  returns 0x00 (0000ms, 0338ms total)
TF5E0 000:608 JLINK_WriteReg(R8, 0x00000000)  returns 0x00 (0000ms, 0338ms total)
TF5E0 000:608 JLINK_WriteReg(R9, 0x2000024C)  returns 0x00 (0000ms, 0338ms total)
TF5E0 000:608 JLINK_WriteReg(R10, 0x00000000)  returns 0x00 (0000ms, 0338ms total)
TF5E0 000:608 JLINK_WriteReg(R11, 0x00000000)  returns 0x00 (0000ms, 0338ms total)
TF5E0 000:608 JLINK_WriteReg(R12, 0x00000000)  returns 0x00 (0000ms, 0338ms total)
TF5E0 000:608 JLINK_WriteReg(R13 (SP), 0x20004000)  returns 0x00 (0000ms, 0338ms total)
TF5E0 000:608 JLINK_WriteReg(R14, 0x20000001)  returns 0x00 (0000ms, 0338ms total)
TF5E0 000:608 JLINK_WriteReg(R15 (PC), 0x20000020)  returns 0x00 (0000ms, 0338ms total)
TF5E0 000:608 JLINK_WriteReg(XPSR, 0x01000000)  returns 0x00 (0000ms, 0338ms total)
TF5E0 000:608 JLINK_WriteReg(MSP, 0x20004000)  returns 0x00 (0000ms, 0338ms total)
TF5E0 000:608 JLINK_WriteReg(PSP, 0x20004000)  returns 0x00 (0000ms, 0338ms total)
TF5E0 000:608 JLINK_WriteReg(CFBP, 0x00000000)  returns 0x00 (0000ms, 0338ms total)
TF5E0 000:608 JLINK_SetBPEx(Addr = 0x20000000, Type = 0xFFFFFFF2)  returns 0x00000006 (0000ms, 0338ms total)
TF5E0 000:608 JLINK_Go() -- CPU_ReadMem(4 bytes @ 0xE0001000) -- CPU_WriteMem(4 bytes @ 0xE0001000) (0004ms, 0342ms total)
TF5E0 000:612 JLINK_IsHalted() -- CPU_ReadMem(2 bytes @ 0x20000000)  returns TRUE (0007ms, 0349ms total)
TF5E0 000:619 JLINK_ReadReg(R15 (PC))  returns 0x20000000 (0000ms, 0342ms total)
TF5E0 000:619 JLINK_ClrBPEx(BPHandle = 0x00000006)  returns 0x00 (0000ms, 0342ms total)
TF5E0 000:619 JLINK_ReadReg(R0)  returns 0x00000001 (0000ms, 0342ms total)
TF5E0 000:619 JLINK_WriteReg(R0, 0x00000400)  returns 0x00 (0000ms, 0342ms total)
TF5E0 000:619 JLINK_WriteReg(R1, 0x00000200)  returns 0x00 (0000ms, 0342ms total)
TF5E0 000:619 JLINK_WriteReg(R2, 0x000000FF)  returns 0x00 (0000ms, 0342ms total)
TF5E0 000:619 JLINK_WriteReg(R3, 0x00000000)  returns 0x00 (0000ms, 0342ms total)
TF5E0 000:619 JLINK_WriteReg(R4, 0x00000000)  returns 0x00 (0000ms, 0342ms total)
TF5E0 000:619 JLINK_WriteReg(R5, 0x00000000)  returns 0x00 (0000ms, 0342ms total)
TF5E0 000:619 JLINK_WriteReg(R6, 0x00000000)  returns 0x00 (0000ms, 0342ms total)
TF5E0 000:619 JLINK_WriteReg(R7, 0x00000000)  returns 0x00 (0000ms, 0342ms total)
TF5E0 000:619 JLINK_WriteReg(R8, 0x00000000)  returns 0x00 (0000ms, 0342ms total)
TF5E0 000:619 JLINK_WriteReg(R9, 0x2000024C)  returns 0x00 (0000ms, 0342ms total)
TF5E0 000:619 JLINK_WriteReg(R10, 0x00000000)  returns 0x00 (0000ms, 0342ms total)
TF5E0 000:619 JLINK_WriteReg(R11, 0x00000000)  returns 0x00 (0000ms, 0342ms total)
TF5E0 000:619 JLINK_WriteReg(R12, 0x00000000)  returns 0x00 (0000ms, 0342ms total)
TF5E0 000:619 JLINK_WriteReg(R13 (SP), 0x20004000)  returns 0x00 (0000ms, 0342ms total)
TF5E0 000:619 JLINK_WriteReg(R14, 0x20000001)  returns 0x00 (0000ms, 0342ms total)
TF5E0 000:619 JLINK_WriteReg(R15 (PC), 0x20000074)  returns 0x00 (0000ms, 0342ms total)
TF5E0 000:619 JLINK_WriteReg(XPSR, 0x01000000)  returns 0x00 (0000ms, 0342ms total)
TF5E0 000:619 JLINK_WriteReg(MSP, 0x20004000)  returns 0x00 (0000ms, 0342ms total)
TF5E0 000:619 JLINK_WriteReg(PSP, 0x20004000)  returns 0x00 (0000ms, 0342ms total)
TF5E0 000:619 JLINK_WriteReg(CFBP, 0x00000000)  returns 0x00 (0000ms, 0342ms total)
TF5E0 000:619 JLINK_SetBPEx(Addr = 0x20000000, Type = 0xFFFFFFF2)  returns 0x00000007 (0000ms, 0342ms total)
TF5E0 000:619 JLINK_Go() -- CPU_ReadMem(4 bytes @ 0xE0001000) -- CPU_WriteMem(4 bytes @ 0xE0001000) (0004ms, 0346ms total)
TF5E0 000:623 JLINK_IsHalted()  returns FALSE (0001ms, 0347ms total)
TF5E0 000:629 JLINK_IsHalted() -- CPU_ReadMem(2 bytes @ 0x20000000)  returns TRUE (0006ms, 0352ms total)
TF5E0 000:635 JLINK_ReadReg(R15 (PC))  returns 0x20000000 (0000ms, 0346ms total)
TF5E0 000:635 JLINK_ClrBPEx(BPHandle = 0x00000007)  returns 0x00 (0000ms, 0346ms total)
TF5E0 000:635 JLINK_ReadReg(R0)  returns 0x00000000 (0000ms, 0346ms total)
TF5E0 000:636 JLINK_WriteReg(R0, 0x00000600)  returns 0x00 (0000ms, 0346ms total)
TF5E0 000:636 JLINK_WriteReg(R1, 0x00000200)  returns 0x00 (0000ms, 0346ms total)
TF5E0 000:636 JLINK_WriteReg(R2, 0x000000FF)  returns 0x00 (0000ms, 0346ms total)
TF5E0 000:636 JLINK_WriteReg(R3, 0x00000000)  returns 0x00 (0000ms, 0346ms total)
TF5E0 000:636 JLINK_WriteReg(R4, 0x00000000)  returns 0x00 (0000ms, 0346ms total)
TF5E0 000:636 JLINK_WriteReg(R5, 0x00000000)  returns 0x00 (0000ms, 0346ms total)
TF5E0 000:636 JLINK_WriteReg(R6, 0x00000000)  returns 0x00 (0000ms, 0346ms total)
TF5E0 000:636 JLINK_WriteReg(R7, 0x00000000)  returns 0x00 (0000ms, 0346ms total)
TF5E0 000:636 JLINK_WriteReg(R8, 0x00000000)  returns 0x00 (0000ms, 0346ms total)
TF5E0 000:636 JLINK_WriteReg(R9, 0x2000024C)  returns 0x00 (0000ms, 0346ms total)
TF5E0 000:636 JLINK_WriteReg(R10, 0x00000000)  returns 0x00 (0000ms, 0346ms total)
TF5E0 000:636 JLINK_WriteReg(R11, 0x00000000)  returns 0x00 (0000ms, 0346ms total)
TF5E0 000:636 JLINK_WriteReg(R12, 0x00000000)  returns 0x00 (0000ms, 0346ms total)
TF5E0 000:636 JLINK_WriteReg(R13 (SP), 0x20004000)  returns 0x00 (0000ms, 0346ms total)
TF5E0 000:636 JLINK_WriteReg(R14, 0x20000001)  returns 0x00 (0000ms, 0346ms total)
TF5E0 000:636 JLINK_WriteReg(R15 (PC), 0x20000020)  returns 0x00 (0000ms, 0346ms total)
TF5E0 000:636 JLINK_WriteReg(XPSR, 0x01000000)  returns 0x00 (0000ms, 0346ms total)
TF5E0 000:636 JLINK_WriteReg(MSP, 0x20004000)  returns 0x00 (0000ms, 0346ms total)
TF5E0 000:636 JLINK_WriteReg(PSP, 0x20004000)  returns 0x00 (0000ms, 0346ms total)
TF5E0 000:636 JLINK_WriteReg(CFBP, 0x00000000)  returns 0x00 (0000ms, 0346ms total)
TF5E0 000:636 JLINK_SetBPEx(Addr = 0x20000000, Type = 0xFFFFFFF2)  returns 0x00000008 (0000ms, 0346ms total)
TF5E0 000:636 JLINK_Go() -- CPU_ReadMem(4 bytes @ 0xE0001000) -- CPU_WriteMem(4 bytes @ 0xE0001000) (0005ms, 0351ms total)
TF5E0 000:641 JLINK_IsHalted() -- CPU_ReadMem(2 bytes @ 0x20000000)  returns TRUE (0007ms, 0358ms total)
TF5E0 000:648 JLINK_ReadReg(R15 (PC))  returns 0x20000000 (0000ms, 0351ms total)
TF5E0 000:648 JLINK_ClrBPEx(BPHandle = 0x00000008)  returns 0x00 (0000ms, 0351ms total)
TF5E0 000:648 JLINK_ReadReg(R0)  returns 0x00000001 (0000ms, 0351ms total)
TF5E0 000:648 JLINK_WriteReg(R0, 0x00000600)  returns 0x00 (0000ms, 0351ms total)
TF5E0 000:648 JLINK_WriteReg(R1, 0x00000200)  returns 0x00 (0000ms, 0351ms total)
TF5E0 000:648 JLINK_WriteReg(R2, 0x000000FF)  returns 0x00 (0000ms, 0351ms total)
TF5E0 000:648 JLINK_WriteReg(R3, 0x00000000)  returns 0x00 (0000ms, 0351ms total)
TF5E0 000:648 JLINK_WriteReg(R4, 0x00000000)  returns 0x00 (0000ms, 0351ms total)
TF5E0 000:648 JLINK_WriteReg(R5, 0x00000000)  returns 0x00 (0000ms, 0351ms total)
TF5E0 000:648 JLINK_WriteReg(R6, 0x00000000)  returns 0x00 (0000ms, 0351ms total)
TF5E0 000:648 JLINK_WriteReg(R7, 0x00000000)  returns 0x00 (0000ms, 0351ms total)
TF5E0 000:648 JLINK_WriteReg(R8, 0x00000000)  returns 0x00 (0000ms, 0351ms total)
TF5E0 000:648 JLINK_WriteReg(R9, 0x2000024C)  returns 0x00 (0000ms, 0351ms total)
TF5E0 000:648 JLINK_WriteReg(R10, 0x00000000)  returns 0x00 (0000ms, 0351ms total)
TF5E0 000:648 JLINK_WriteReg(R11, 0x00000000)  returns 0x00 (0000ms, 0351ms total)
TF5E0 000:648 JLINK_WriteReg(R12, 0x00000000)  returns 0x00 (0000ms, 0351ms total)
TF5E0 000:648 JLINK_WriteReg(R13 (SP), 0x20004000)  returns 0x00 (0000ms, 0351ms total)
TF5E0 000:648 JLINK_WriteReg(R14, 0x20000001)  returns 0x00 (0000ms, 0351ms total)
TF5E0 000:648 JLINK_WriteReg(R15 (PC), 0x20000074)  returns 0x00 (0000ms, 0351ms total)
TF5E0 000:648 JLINK_WriteReg(XPSR, 0x01000000)  returns 0x00 (0000ms, 0351ms total)
TF5E0 000:648 JLINK_WriteReg(MSP, 0x20004000)  returns 0x00 (0000ms, 0351ms total)
TF5E0 000:648 JLINK_WriteReg(PSP, 0x20004000)  returns 0x00 (0000ms, 0351ms total)
TF5E0 000:648 JLINK_WriteReg(CFBP, 0x00000000)  returns 0x00 (0000ms, 0351ms total)
TF5E0 000:648 JLINK_SetBPEx(Addr = 0x20000000, Type = 0xFFFFFFF2)  returns 0x00000009 (0000ms, 0351ms total)
TF5E0 000:648 JLINK_Go() -- CPU_ReadMem(4 bytes @ 0xE0001000) -- CPU_WriteMem(4 bytes @ 0xE0001000) (0004ms, 0355ms total)
TF5E0 000:652 JLINK_IsHalted()  returns FALSE (0000ms, 0355ms total)
TF5E0 000:659 JLINK_IsHalted() -- CPU_ReadMem(2 bytes @ 0x20000000)  returns TRUE (0007ms, 0362ms total)
TF5E0 000:666 JLINK_ReadReg(R15 (PC))  returns 0x20000000 (0000ms, 0355ms total)
TF5E0 000:666 JLINK_ClrBPEx(BPHandle = 0x00000009)  returns 0x00 (0000ms, 0355ms total)
TF5E0 000:666 JLINK_ReadReg(R0)  returns 0x00000000 (0000ms, 0355ms total)
TF5E0 000:666 JLINK_WriteReg(R0, 0x00000800)  returns 0x00 (0000ms, 0355ms total)
TF5E0 000:666 JLINK_WriteReg(R1, 0x00000200)  returns 0x00 (0000ms, 0355ms total)
TF5E0 000:666 JLINK_WriteReg(R2, 0x000000FF)  returns 0x00 (0000ms, 0355ms total)
TF5E0 000:666 JLINK_WriteReg(R3, 0x00000000)  returns 0x00 (0000ms, 0355ms total)
TF5E0 000:666 JLINK_WriteReg(R4, 0x00000000)  returns 0x00 (0000ms, 0355ms total)
TF5E0 000:666 JLINK_WriteReg(R5, 0x00000000)  returns 0x00 (0000ms, 0355ms total)
TF5E0 000:666 JLINK_WriteReg(R6, 0x00000000)  returns 0x00 (0000ms, 0355ms total)
TF5E0 000:666 JLINK_WriteReg(R7, 0x00000000)  returns 0x00 (0000ms, 0355ms total)
TF5E0 000:666 JLINK_WriteReg(R8, 0x00000000)  returns 0x00 (0000ms, 0355ms total)
TF5E0 000:666 JLINK_WriteReg(R9, 0x2000024C)  returns 0x00 (0000ms, 0355ms total)
TF5E0 000:666 JLINK_WriteReg(R10, 0x00000000)  returns 0x00 (0000ms, 0355ms total)
TF5E0 000:666 JLINK_WriteReg(R11, 0x00000000)  returns 0x00 (0000ms, 0355ms total)
TF5E0 000:666 JLINK_WriteReg(R12, 0x00000000)  returns 0x00 (0000ms, 0355ms total)
TF5E0 000:666 JLINK_WriteReg(R13 (SP), 0x20004000)  returns 0x00 (0000ms, 0355ms total)
TF5E0 000:666 JLINK_WriteReg(R14, 0x20000001)  returns 0x00 (0000ms, 0355ms total)
TF5E0 000:666 JLINK_WriteReg(R15 (PC), 0x20000020)  returns 0x00 (0000ms, 0355ms total)
TF5E0 000:666 JLINK_WriteReg(XPSR, 0x01000000)  returns 0x00 (0000ms, 0355ms total)
TF5E0 000:666 JLINK_WriteReg(MSP, 0x20004000)  returns 0x00 (0000ms, 0355ms total)
TF5E0 000:666 JLINK_WriteReg(PSP, 0x20004000)  returns 0x00 (0000ms, 0355ms total)
TF5E0 000:666 JLINK_WriteReg(CFBP, 0x00000000)  returns 0x00 (0000ms, 0355ms total)
TF5E0 000:667 JLINK_SetBPEx(Addr = 0x20000000, Type = 0xFFFFFFF2)  returns 0x0000000A (0000ms, 0355ms total)
TF5E0 000:667 JLINK_Go() -- CPU_ReadMem(4 bytes @ 0xE0001000) -- CPU_WriteMem(4 bytes @ 0xE0001000) (0004ms, 0359ms total)
TF5E0 000:671 JLINK_IsHalted() -- CPU_ReadMem(2 bytes @ 0x20000000)  returns TRUE (0007ms, 0366ms total)
TF5E0 000:678 JLINK_ReadReg(R15 (PC))  returns 0x20000000 (0000ms, 0359ms total)
TF5E0 000:678 JLINK_ClrBPEx(BPHandle = 0x0000000A)  returns 0x00 (0000ms, 0359ms total)
TF5E0 000:678 JLINK_ReadReg(R0)  returns 0x00000001 (0000ms, 0359ms total)
TF5E0 000:678 JLINK_WriteReg(R0, 0x00000800)  returns 0x00 (0000ms, 0359ms total)
TF5E0 000:678 JLINK_WriteReg(R1, 0x00000200)  returns 0x00 (0000ms, 0359ms total)
TF5E0 000:678 JLINK_WriteReg(R2, 0x000000FF)  returns 0x00 (0000ms, 0359ms total)
TF5E0 000:678 JLINK_WriteReg(R3, 0x00000000)  returns 0x00 (0000ms, 0359ms total)
TF5E0 000:678 JLINK_WriteReg(R4, 0x00000000)  returns 0x00 (0000ms, 0359ms total)
TF5E0 000:678 JLINK_WriteReg(R5, 0x00000000)  returns 0x00 (0000ms, 0359ms total)
TF5E0 000:678 JLINK_WriteReg(R6, 0x00000000)  returns 0x00 (0000ms, 0359ms total)
TF5E0 000:678 JLINK_WriteReg(R7, 0x00000000)  returns 0x00 (0000ms, 0359ms total)
TF5E0 000:678 JLINK_WriteReg(R8, 0x00000000)  returns 0x00 (0000ms, 0359ms total)
TF5E0 000:678 JLINK_WriteReg(R9, 0x2000024C)  returns 0x00 (0000ms, 0359ms total)
TF5E0 000:678 JLINK_WriteReg(R10, 0x00000000)  returns 0x00 (0000ms, 0359ms total)
TF5E0 000:678 JLINK_WriteReg(R11, 0x00000000)  returns 0x00 (0000ms, 0359ms total)
TF5E0 000:678 JLINK_WriteReg(R12, 0x00000000)  returns 0x00 (0000ms, 0359ms total)
TF5E0 000:678 JLINK_WriteReg(R13 (SP), 0x20004000)  returns 0x00 (0000ms, 0359ms total)
TF5E0 000:678 JLINK_WriteReg(R14, 0x20000001)  returns 0x00 (0000ms, 0359ms total)
TF5E0 000:678 JLINK_WriteReg(R15 (PC), 0x20000074)  returns 0x00 (0000ms, 0359ms total)
TF5E0 000:678 JLINK_WriteReg(XPSR, 0x01000000)  returns 0x00 (0000ms, 0359ms total)
TF5E0 000:678 JLINK_WriteReg(MSP, 0x20004000)  returns 0x00 (0000ms, 0359ms total)
TF5E0 000:678 JLINK_WriteReg(PSP, 0x20004000)  returns 0x00 (0000ms, 0359ms total)
TF5E0 000:678 JLINK_WriteReg(CFBP, 0x00000000)  returns 0x00 (0000ms, 0359ms total)
TF5E0 000:678 JLINK_SetBPEx(Addr = 0x20000000, Type = 0xFFFFFFF2)  returns 0x0000000B (0000ms, 0359ms total)
TF5E0 000:678 JLINK_Go() -- CPU_ReadMem(4 bytes @ 0xE0001000) -- CPU_WriteMem(4 bytes @ 0xE0001000) (0004ms, 0363ms total)
TF5E0 000:682 JLINK_IsHalted()  returns FALSE (0001ms, 0364ms total)
TF5E0 000:687 JLINK_IsHalted() -- CPU_ReadMem(2 bytes @ 0x20000000)  returns TRUE (0006ms, 0369ms total)
TF5E0 000:694 JLINK_ReadReg(R15 (PC))  returns 0x20000000 (0000ms, 0363ms total)
TF5E0 000:694 JLINK_ClrBPEx(BPHandle = 0x0000000B)  returns 0x00 (0000ms, 0363ms total)
TF5E0 000:694 JLINK_ReadReg(R0)  returns 0x00000000 (0000ms, 0363ms total)
TF5E0 000:695 JLINK_WriteReg(R0, 0x00000A00)  returns 0x00 (0000ms, 0363ms total)
TF5E0 000:695 JLINK_WriteReg(R1, 0x00000200)  returns 0x00 (0000ms, 0363ms total)
TF5E0 000:695 JLINK_WriteReg(R2, 0x000000FF)  returns 0x00 (0000ms, 0363ms total)
TF5E0 000:695 JLINK_WriteReg(R3, 0x00000000)  returns 0x00 (0000ms, 0363ms total)
TF5E0 000:695 JLINK_WriteReg(R4, 0x00000000)  returns 0x00 (0000ms, 0363ms total)
TF5E0 000:695 JLINK_WriteReg(R5, 0x00000000)  returns 0x00 (0000ms, 0363ms total)
TF5E0 000:695 JLINK_WriteReg(R6, 0x00000000)  returns 0x00 (0000ms, 0363ms total)
TF5E0 000:695 JLINK_WriteReg(R7, 0x00000000)  returns 0x00 (0000ms, 0363ms total)
TF5E0 000:695 JLINK_WriteReg(R8, 0x00000000)  returns 0x00 (0000ms, 0363ms total)
TF5E0 000:695 JLINK_WriteReg(R9, 0x2000024C)  returns 0x00 (0000ms, 0363ms total)
TF5E0 000:695 JLINK_WriteReg(R10, 0x00000000)  returns 0x00 (0000ms, 0363ms total)
TF5E0 000:695 JLINK_WriteReg(R11, 0x00000000)  returns 0x00 (0000ms, 0363ms total)
TF5E0 000:695 JLINK_WriteReg(R12, 0x00000000)  returns 0x00 (0000ms, 0363ms total)
TF5E0 000:695 JLINK_WriteReg(R13 (SP), 0x20004000)  returns 0x00 (0000ms, 0363ms total)
TF5E0 000:695 JLINK_WriteReg(R14, 0x20000001)  returns 0x00 (0000ms, 0363ms total)
TF5E0 000:695 JLINK_WriteReg(R15 (PC), 0x20000020)  returns 0x00 (0000ms, 0363ms total)
TF5E0 000:695 JLINK_WriteReg(XPSR, 0x01000000)  returns 0x00 (0000ms, 0363ms total)
TF5E0 000:695 JLINK_WriteReg(MSP, 0x20004000)  returns 0x00 (0000ms, 0363ms total)
TF5E0 000:695 JLINK_WriteReg(PSP, 0x20004000)  returns 0x00 (0000ms, 0363ms total)
TF5E0 000:695 JLINK_WriteReg(CFBP, 0x00000000)  returns 0x00 (0000ms, 0363ms total)
TF5E0 000:695 JLINK_SetBPEx(Addr = 0x20000000, Type = 0xFFFFFFF2)  returns 0x0000000C (0000ms, 0363ms total)
TF5E0 000:695 JLINK_Go() -- CPU_ReadMem(4 bytes @ 0xE0001000) -- CPU_WriteMem(4 bytes @ 0xE0001000) (0004ms, 0367ms total)
TF5E0 000:699 JLINK_IsHalted() -- CPU_ReadMem(2 bytes @ 0x20000000)  returns TRUE (0007ms, 0374ms total)
TF5E0 000:706 JLINK_ReadReg(R15 (PC))  returns 0x20000000 (0000ms, 0367ms total)
TF5E0 000:706 JLINK_ClrBPEx(BPHandle = 0x0000000C)  returns 0x00 (0000ms, 0367ms total)
TF5E0 000:706 JLINK_ReadReg(R0)  returns 0x00000001 (0000ms, 0367ms total)
TF5E0 000:706 JLINK_WriteReg(R0, 0x00000A00)  returns 0x00 (0000ms, 0367ms total)
TF5E0 000:706 JLINK_WriteReg(R1, 0x00000200)  returns 0x00 (0000ms, 0367ms total)
TF5E0 000:706 JLINK_WriteReg(R2, 0x000000FF)  returns 0x00 (0000ms, 0367ms total)
TF5E0 000:706 JLINK_WriteReg(R3, 0x00000000)  returns 0x00 (0000ms, 0367ms total)
TF5E0 000:706 JLINK_WriteReg(R4, 0x00000000)  returns 0x00 (0000ms, 0367ms total)
TF5E0 000:706 JLINK_WriteReg(R5, 0x00000000)  returns 0x00 (0000ms, 0367ms total)
TF5E0 000:706 JLINK_WriteReg(R6, 0x00000000)  returns 0x00 (0000ms, 0367ms total)
TF5E0 000:706 JLINK_WriteReg(R7, 0x00000000)  returns 0x00 (0000ms, 0367ms total)
TF5E0 000:706 JLINK_WriteReg(R8, 0x00000000)  returns 0x00 (0000ms, 0367ms total)
TF5E0 000:706 JLINK_WriteReg(R9, 0x2000024C)  returns 0x00 (0000ms, 0367ms total)
TF5E0 000:706 JLINK_WriteReg(R10, 0x00000000)  returns 0x00 (0000ms, 0367ms total)
TF5E0 000:706 JLINK_WriteReg(R11, 0x00000000)  returns 0x00 (0000ms, 0367ms total)
TF5E0 000:706 JLINK_WriteReg(R12, 0x00000000)  returns 0x00 (0000ms, 0367ms total)
TF5E0 000:706 JLINK_WriteReg(R13 (SP), 0x20004000)  returns 0x00 (0000ms, 0367ms total)
TF5E0 000:706 JLINK_WriteReg(R14, 0x20000001)  returns 0x00 (0000ms, 0367ms total)
TF5E0 000:706 JLINK_WriteReg(R15 (PC), 0x20000074)  returns 0x00 (0000ms, 0367ms total)
TF5E0 000:706 JLINK_WriteReg(XPSR, 0x01000000)  returns 0x00 (0000ms, 0367ms total)
TF5E0 000:706 JLINK_WriteReg(MSP, 0x20004000)  returns 0x00 (0000ms, 0367ms total)
TF5E0 000:706 JLINK_WriteReg(PSP, 0x20004000)  returns 0x00 (0000ms, 0367ms total)
TF5E0 000:706 JLINK_WriteReg(CFBP, 0x00000000)  returns 0x00 (0000ms, 0367ms total)
TF5E0 000:706 JLINK_SetBPEx(Addr = 0x20000000, Type = 0xFFFFFFF2)  returns 0x0000000D (0000ms, 0367ms total)
TF5E0 000:706 JLINK_Go() -- CPU_ReadMem(4 bytes @ 0xE0001000) -- CPU_WriteMem(4 bytes @ 0xE0001000) (0004ms, 0371ms total)
TF5E0 000:710 JLINK_IsHalted()  returns FALSE (0001ms, 0372ms total)
TF5E0 000:714 JLINK_IsHalted()  returns FALSE (0000ms, 0371ms total)
TF5E0 000:716 JLINK_IsHalted() -- CPU_ReadMem(2 bytes @ 0x20000000)  returns TRUE (0007ms, 0378ms total)
TF5E0 000:723 JLINK_ReadReg(R15 (PC))  returns 0x20000000 (0000ms, 0371ms total)
TF5E0 000:723 JLINK_ClrBPEx(BPHandle = 0x0000000D)  returns 0x00 (0000ms, 0371ms total)
TF5E0 000:723 JLINK_ReadReg(R0)  returns 0x00000000 (0000ms, 0371ms total)
TF5E0 000:724 JLINK_WriteReg(R0, 0x00000C00)  returns 0x00 (0000ms, 0371ms total)
TF5E0 000:724 JLINK_WriteReg(R1, 0x00000200)  returns 0x00 (0000ms, 0371ms total)
TF5E0 000:724 JLINK_WriteReg(R2, 0x000000FF)  returns 0x00 (0000ms, 0371ms total)
TF5E0 000:724 JLINK_WriteReg(R3, 0x00000000)  returns 0x00 (0000ms, 0371ms total)
TF5E0 000:724 JLINK_WriteReg(R4, 0x00000000)  returns 0x00 (0000ms, 0371ms total)
TF5E0 000:724 JLINK_WriteReg(R5, 0x00000000)  returns 0x00 (0000ms, 0371ms total)
TF5E0 000:724 JLINK_WriteReg(R6, 0x00000000)  returns 0x00 (0000ms, 0371ms total)
TF5E0 000:724 JLINK_WriteReg(R7, 0x00000000)  returns 0x00 (0000ms, 0371ms total)
TF5E0 000:724 JLINK_WriteReg(R8, 0x00000000)  returns 0x00 (0000ms, 0371ms total)
TF5E0 000:724 JLINK_WriteReg(R9, 0x2000024C)  returns 0x00 (0000ms, 0371ms total)
TF5E0 000:724 JLINK_WriteReg(R10, 0x00000000)  returns 0x00 (0000ms, 0371ms total)
TF5E0 000:724 JLINK_WriteReg(R11, 0x00000000)  returns 0x00 (0000ms, 0371ms total)
TF5E0 000:724 JLINK_WriteReg(R12, 0x00000000)  returns 0x00 (0000ms, 0371ms total)
TF5E0 000:724 JLINK_WriteReg(R13 (SP), 0x20004000)  returns 0x00 (0000ms, 0371ms total)
TF5E0 000:724 JLINK_WriteReg(R14, 0x20000001)  returns 0x00 (0000ms, 0371ms total)
TF5E0 000:724 JLINK_WriteReg(R15 (PC), 0x20000020)  returns 0x00 (0000ms, 0371ms total)
TF5E0 000:724 JLINK_WriteReg(XPSR, 0x01000000)  returns 0x00 (0000ms, 0371ms total)
TF5E0 000:724 JLINK_WriteReg(MSP, 0x20004000)  returns 0x00 (0000ms, 0371ms total)
TF5E0 000:724 JLINK_WriteReg(PSP, 0x20004000)  returns 0x00 (0000ms, 0371ms total)
TF5E0 000:724 JLINK_WriteReg(CFBP, 0x00000000)  returns 0x00 (0000ms, 0371ms total)
TF5E0 000:724 JLINK_SetBPEx(Addr = 0x20000000, Type = 0xFFFFFFF2)  returns 0x0000000E (0000ms, 0371ms total)
TF5E0 000:724 JLINK_Go() -- CPU_ReadMem(4 bytes @ 0xE0001000) -- CPU_WriteMem(4 bytes @ 0xE0001000) (0004ms, 0375ms total)
TF5E0 000:728 JLINK_IsHalted() -- CPU_ReadMem(2 bytes @ 0x20000000)  returns TRUE (0008ms, 0383ms total)
TF5E0 000:736 JLINK_ReadReg(R15 (PC))  returns 0x20000000 (0000ms, 0375ms total)
TF5E0 000:736 JLINK_ClrBPEx(BPHandle = 0x0000000E)  returns 0x00 (0000ms, 0375ms total)
TF5E0 000:736 JLINK_ReadReg(R0)  returns 0x00000001 (0000ms, 0375ms total)
TF5E0 000:736 JLINK_WriteReg(R0, 0x00000C00)  returns 0x00 (0000ms, 0375ms total)
TF5E0 000:736 JLINK_WriteReg(R1, 0x00000200)  returns 0x00 (0000ms, 0375ms total)
TF5E0 000:736 JLINK_WriteReg(R2, 0x000000FF)  returns 0x00 (0000ms, 0375ms total)
TF5E0 000:736 JLINK_WriteReg(R3, 0x00000000)  returns 0x00 (0000ms, 0375ms total)
TF5E0 000:736 JLINK_WriteReg(R4, 0x00000000)  returns 0x00 (0000ms, 0375ms total)
TF5E0 000:736 JLINK_WriteReg(R5, 0x00000000)  returns 0x00 (0000ms, 0375ms total)
TF5E0 000:736 JLINK_WriteReg(R6, 0x00000000)  returns 0x00 (0000ms, 0375ms total)
TF5E0 000:736 JLINK_WriteReg(R7, 0x00000000)  returns 0x00 (0000ms, 0375ms total)
TF5E0 000:736 JLINK_WriteReg(R8, 0x00000000)  returns 0x00 (0000ms, 0375ms total)
TF5E0 000:736 JLINK_WriteReg(R9, 0x2000024C)  returns 0x00 (0000ms, 0375ms total)
TF5E0 000:736 JLINK_WriteReg(R10, 0x00000000)  returns 0x00 (0000ms, 0375ms total)
TF5E0 000:736 JLINK_WriteReg(R11, 0x00000000)  returns 0x00 (0000ms, 0375ms total)
TF5E0 000:736 JLINK_WriteReg(R12, 0x00000000)  returns 0x00 (0000ms, 0375ms total)
TF5E0 000:736 JLINK_WriteReg(R13 (SP), 0x20004000)  returns 0x00 (0000ms, 0375ms total)
TF5E0 000:736 JLINK_WriteReg(R14, 0x20000001)  returns 0x00 (0000ms, 0375ms total)
TF5E0 000:736 JLINK_WriteReg(R15 (PC), 0x20000074)  returns 0x00 (0000ms, 0375ms total)
TF5E0 000:736 JLINK_WriteReg(XPSR, 0x01000000)  returns 0x00 (0000ms, 0375ms total)
TF5E0 000:736 JLINK_WriteReg(MSP, 0x20004000)  returns 0x00 (0000ms, 0375ms total)
TF5E0 000:736 JLINK_WriteReg(PSP, 0x20004000)  returns 0x00 (0000ms, 0375ms total)
TF5E0 000:736 JLINK_WriteReg(CFBP, 0x00000000)  returns 0x00 (0000ms, 0375ms total)
TF5E0 000:736 JLINK_SetBPEx(Addr = 0x20000000, Type = 0xFFFFFFF2)  returns 0x0000000F (0000ms, 0375ms total)
TF5E0 000:736 JLINK_Go() -- CPU_ReadMem(4 bytes @ 0xE0001000) -- CPU_WriteMem(4 bytes @ 0xE0001000) (0004ms, 0379ms total)
TF5E0 000:740 JLINK_IsHalted()  returns FALSE (0001ms, 0380ms total)
TF5E0 000:746 JLINK_IsHalted() -- CPU_ReadMem(2 bytes @ 0x20000000)  returns TRUE (0007ms, 0386ms total)
TF5E0 000:753 JLINK_ReadReg(R15 (PC))  returns 0x20000000 (0000ms, 0379ms total)
TF5E0 000:753 JLINK_ClrBPEx(BPHandle = 0x0000000F)  returns 0x00 (0000ms, 0379ms total)
TF5E0 000:753 JLINK_ReadReg(R0)  returns 0x00000000 (0000ms, 0379ms total)
TF5E0 000:753 JLINK_WriteReg(R0, 0x00000E00)  returns 0x00 (0000ms, 0379ms total)
TF5E0 000:753 JLINK_WriteReg(R1, 0x00000200)  returns 0x00 (0000ms, 0379ms total)
TF5E0 000:753 JLINK_WriteReg(R2, 0x000000FF)  returns 0x00 (0000ms, 0379ms total)
TF5E0 000:753 JLINK_WriteReg(R3, 0x00000000)  returns 0x00 (0000ms, 0379ms total)
TF5E0 000:753 JLINK_WriteReg(R4, 0x00000000)  returns 0x00 (0000ms, 0379ms total)
TF5E0 000:753 JLINK_WriteReg(R5, 0x00000000)  returns 0x00 (0000ms, 0379ms total)
TF5E0 000:753 JLINK_WriteReg(R6, 0x00000000)  returns 0x00 (0000ms, 0379ms total)
TF5E0 000:753 JLINK_WriteReg(R7, 0x00000000)  returns 0x00 (0000ms, 0379ms total)
TF5E0 000:753 JLINK_WriteReg(R8, 0x00000000)  returns 0x00 (0000ms, 0379ms total)
TF5E0 000:753 JLINK_WriteReg(R9, 0x2000024C)  returns 0x00 (0000ms, 0379ms total)
TF5E0 000:753 JLINK_WriteReg(R10, 0x00000000)  returns 0x00 (0000ms, 0379ms total)
TF5E0 000:753 JLINK_WriteReg(R11, 0x00000000)  returns 0x00 (0000ms, 0379ms total)
TF5E0 000:753 JLINK_WriteReg(R12, 0x00000000)  returns 0x00 (0000ms, 0379ms total)
TF5E0 000:753 JLINK_WriteReg(R13 (SP), 0x20004000)  returns 0x00 (0000ms, 0379ms total)
TF5E0 000:753 JLINK_WriteReg(R14, 0x20000001)  returns 0x00 (0000ms, 0379ms total)
TF5E0 000:753 JLINK_WriteReg(R15 (PC), 0x20000020)  returns 0x00 (0000ms, 0379ms total)
TF5E0 000:753 JLINK_WriteReg(XPSR, 0x01000000)  returns 0x00 (0000ms, 0379ms total)
TF5E0 000:753 JLINK_WriteReg(MSP, 0x20004000)  returns 0x00 (0000ms, 0379ms total)
TF5E0 000:753 JLINK_WriteReg(PSP, 0x20004000)  returns 0x00 (0000ms, 0379ms total)
TF5E0 000:753 JLINK_WriteReg(CFBP, 0x00000000)  returns 0x00 (0000ms, 0379ms total)
TF5E0 000:753 JLINK_SetBPEx(Addr = 0x20000000, Type = 0xFFFFFFF2)  returns 0x00000010 (0000ms, 0379ms total)
TF5E0 000:753 JLINK_Go() -- CPU_ReadMem(4 bytes @ 0xE0001000) -- CPU_WriteMem(4 bytes @ 0xE0001000) (0005ms, 0384ms total)
TF5E0 000:758 JLINK_IsHalted() -- CPU_ReadMem(2 bytes @ 0x20000000)  returns TRUE (0007ms, 0391ms total)
TF5E0 000:765 JLINK_ReadReg(R15 (PC))  returns 0x20000000 (0000ms, 0384ms total)
TF5E0 000:765 JLINK_ClrBPEx(BPHandle = 0x00000010)  returns 0x00 (0000ms, 0384ms total)
TF5E0 000:765 JLINK_ReadReg(R0)  returns 0x00000001 (0000ms, 0384ms total)
TF5E0 000:765 JLINK_WriteReg(R0, 0x00000E00)  returns 0x00 (0000ms, 0384ms total)
TF5E0 000:765 JLINK_WriteReg(R1, 0x00000200)  returns 0x00 (0000ms, 0384ms total)
TF5E0 000:765 JLINK_WriteReg(R2, 0x000000FF)  returns 0x00 (0000ms, 0384ms total)
TF5E0 000:765 JLINK_WriteReg(R3, 0x00000000)  returns 0x00 (0000ms, 0384ms total)
TF5E0 000:765 JLINK_WriteReg(R4, 0x00000000)  returns 0x00 (0000ms, 0384ms total)
TF5E0 000:765 JLINK_WriteReg(R5, 0x00000000)  returns 0x00 (0000ms, 0384ms total)
TF5E0 000:765 JLINK_WriteReg(R6, 0x00000000)  returns 0x00 (0000ms, 0384ms total)
TF5E0 000:765 JLINK_WriteReg(R7, 0x00000000)  returns 0x00 (0000ms, 0384ms total)
TF5E0 000:765 JLINK_WriteReg(R8, 0x00000000)  returns 0x00 (0000ms, 0384ms total)
TF5E0 000:765 JLINK_WriteReg(R9, 0x2000024C)  returns 0x00 (0000ms, 0384ms total)
TF5E0 000:765 JLINK_WriteReg(R10, 0x00000000)  returns 0x00 (0000ms, 0384ms total)
TF5E0 000:765 JLINK_WriteReg(R11, 0x00000000)  returns 0x00 (0000ms, 0384ms total)
TF5E0 000:765 JLINK_WriteReg(R12, 0x00000000)  returns 0x00 (0000ms, 0384ms total)
TF5E0 000:765 JLINK_WriteReg(R13 (SP), 0x20004000)  returns 0x00 (0000ms, 0384ms total)
TF5E0 000:765 JLINK_WriteReg(R14, 0x20000001)  returns 0x00 (0000ms, 0384ms total)
TF5E0 000:765 JLINK_WriteReg(R15 (PC), 0x20000074)  returns 0x00 (0000ms, 0384ms total)
TF5E0 000:765 JLINK_WriteReg(XPSR, 0x01000000)  returns 0x00 (0000ms, 0384ms total)
TF5E0 000:765 JLINK_WriteReg(MSP, 0x20004000)  returns 0x00 (0000ms, 0384ms total)
TF5E0 000:765 JLINK_WriteReg(PSP, 0x20004000)  returns 0x00 (0000ms, 0384ms total)
TF5E0 000:765 JLINK_WriteReg(CFBP, 0x00000000)  returns 0x00 (0000ms, 0384ms total)
TF5E0 000:765 JLINK_SetBPEx(Addr = 0x20000000, Type = 0xFFFFFFF2)  returns 0x00000011 (0000ms, 0384ms total)
TF5E0 000:765 JLINK_Go() -- CPU_ReadMem(4 bytes @ 0xE0001000) -- CPU_WriteMem(4 bytes @ 0xE0001000) (0003ms, 0387ms total)
TF5E0 000:768 JLINK_IsHalted()  returns FALSE (0001ms, 0388ms total)
TF5E0 000:772 JLINK_IsHalted()  returns FALSE (0000ms, 0387ms total)
TF5E0 000:774 JLINK_IsHalted() -- CPU_ReadMem(2 bytes @ 0x20000000)  returns TRUE (0006ms, 0393ms total)
TF5E0 000:780 JLINK_ReadReg(R15 (PC))  returns 0x20000000 (0000ms, 0387ms total)
TF5E0 000:780 JLINK_ClrBPEx(BPHandle = 0x00000011)  returns 0x00 (0000ms, 0387ms total)
TF5E0 000:780 JLINK_ReadReg(R0)  returns 0x00000000 (0000ms, 0387ms total)
TF5E0 000:781 JLINK_WriteReg(R0, 0x00001000)  returns 0x00 (0000ms, 0387ms total)
TF5E0 000:781 JLINK_WriteReg(R1, 0x00000200)  returns 0x00 (0000ms, 0387ms total)
TF5E0 000:781 JLINK_WriteReg(R2, 0x000000FF)  returns 0x00 (0000ms, 0387ms total)
TF5E0 000:781 JLINK_WriteReg(R3, 0x00000000)  returns 0x00 (0000ms, 0387ms total)
TF5E0 000:781 JLINK_WriteReg(R4, 0x00000000)  returns 0x00 (0000ms, 0387ms total)
TF5E0 000:781 JLINK_WriteReg(R5, 0x00000000)  returns 0x00 (0000ms, 0387ms total)
TF5E0 000:781 JLINK_WriteReg(R6, 0x00000000)  returns 0x00 (0000ms, 0387ms total)
TF5E0 000:781 JLINK_WriteReg(R7, 0x00000000)  returns 0x00 (0000ms, 0387ms total)
TF5E0 000:781 JLINK_WriteReg(R8, 0x00000000)  returns 0x00 (0000ms, 0387ms total)
TF5E0 000:781 JLINK_WriteReg(R9, 0x2000024C)  returns 0x00 (0000ms, 0387ms total)
TF5E0 000:781 JLINK_WriteReg(R10, 0x00000000)  returns 0x00 (0000ms, 0387ms total)
TF5E0 000:781 JLINK_WriteReg(R11, 0x00000000)  returns 0x00 (0000ms, 0387ms total)
TF5E0 000:781 JLINK_WriteReg(R12, 0x00000000)  returns 0x00 (0000ms, 0387ms total)
TF5E0 000:781 JLINK_WriteReg(R13 (SP), 0x20004000)  returns 0x00 (0000ms, 0387ms total)
TF5E0 000:781 JLINK_WriteReg(R14, 0x20000001)  returns 0x00 (0000ms, 0387ms total)
TF5E0 000:781 JLINK_WriteReg(R15 (PC), 0x20000020)  returns 0x00 (0000ms, 0387ms total)
TF5E0 000:781 JLINK_WriteReg(XPSR, 0x01000000)  returns 0x00 (0000ms, 0387ms total)
TF5E0 000:781 JLINK_WriteReg(MSP, 0x20004000)  returns 0x00 (0000ms, 0387ms total)
TF5E0 000:781 JLINK_WriteReg(PSP, 0x20004000)  returns 0x00 (0000ms, 0387ms total)
TF5E0 000:781 JLINK_WriteReg(CFBP, 0x00000000)  returns 0x00 (0000ms, 0387ms total)
TF5E0 000:781 JLINK_SetBPEx(Addr = 0x20000000, Type = 0xFFFFFFF2)  returns 0x00000012 (0000ms, 0387ms total)
TF5E0 000:781 JLINK_Go() -- CPU_ReadMem(4 bytes @ 0xE0001000) -- CPU_WriteMem(4 bytes @ 0xE0001000) (0004ms, 0391ms total)
TF5E0 000:785 JLINK_IsHalted() -- CPU_ReadMem(2 bytes @ 0x20000000)  returns TRUE (0008ms, 0399ms total)
TF5E0 000:793 JLINK_ReadReg(R15 (PC))  returns 0x20000000 (0000ms, 0391ms total)
TF5E0 000:793 JLINK_ClrBPEx(BPHandle = 0x00000012)  returns 0x00 (0000ms, 0391ms total)
TF5E0 000:793 JLINK_ReadReg(R0)  returns 0x00000001 (0000ms, 0391ms total)
TF5E0 000:793 JLINK_WriteReg(R0, 0x00001000)  returns 0x00 (0000ms, 0391ms total)
TF5E0 000:793 JLINK_WriteReg(R1, 0x00000200)  returns 0x00 (0000ms, 0391ms total)
TF5E0 000:793 JLINK_WriteReg(R2, 0x000000FF)  returns 0x00 (0000ms, 0391ms total)
TF5E0 000:793 JLINK_WriteReg(R3, 0x00000000)  returns 0x00 (0000ms, 0391ms total)
TF5E0 000:793 JLINK_WriteReg(R4, 0x00000000)  returns 0x00 (0000ms, 0391ms total)
TF5E0 000:793 JLINK_WriteReg(R5, 0x00000000)  returns 0x00 (0000ms, 0391ms total)
TF5E0 000:793 JLINK_WriteReg(R6, 0x00000000)  returns 0x00 (0000ms, 0391ms total)
TF5E0 000:793 JLINK_WriteReg(R7, 0x00000000)  returns 0x00 (0000ms, 0391ms total)
